
**** 09/17/24 21:28:01 **** PSpice 23.1.0 (30 January 2024) *** ID# 0 ********

 ** Profile: "SCHEMATIC1-lab1_analys"  [ E:\electric-circuit\LAB1_project\lab1_project-pspicefiles\schematic1\lab1_analys.sim ] 


 ****     CIRCUIT DESCRIPTION


******************************************************************************




** Creating circuit file "lab1_analys.cir" 
** WARNING: THIS AUTOMATICALLY GENERATED FILE MAY BE OVERWRITTEN BY SUBSEQUENT SIMULATIONS

*Libraries: 
* Profile Libraries :
* Local Libraries :
* From [PSPICE NETLIST] section of C:\cds_spb_home\cdssetup\OrCAD_PSpiceTIPSpice_Install\23.1.0\PSpice.ini file:
.lib "nom_pspti.lib" 
.lib "nom.lib" 

*Analysis directives: 
.OPTIONS ADVCONV
.OPTIONS FILEMODELSEARCH
.PROBE64 V(alias(*)) I(alias(*)) W(alias(*)) D(alias(*)) NOISE(alias(*)) 
.INC "..\SCHEMATIC1.net" 



**** INCLUDING SCHEMATIC1.net ****
* source LAB1_PROJECT
R_R1         A B  16 TC=0,0 
R_R7         B N17191  30 TC=0,0 
R_R6         C B  15 TC=0,0 
R_R3         0 C  12 TC=0,0 
R_R4         0 N17191  20 TC=0,0 
V_V1         A 0 100Vdc
R_R2         0 B  35 TC=0,0 
R_R5         C N17191  10 TC=0,0 

**** RESUMING lab1_analys.cir ****
.END

**** 09/17/24 21:28:01 **** PSpice 23.1.0 (30 January 2024) *** ID# 0 ********

 ** Profile: "SCHEMATIC1-lab1_analys"  [ E:\electric-circuit\LAB1_project\lab1_project-pspicefiles\schematic1\lab1_analys.sim ] 


 ****     SMALL SIGNAL BIAS SOLUTION       TEMPERATURE =   27.000 DEG C


******************************************************************************



 NODE   VOLTAGE     NODE   VOLTAGE     NODE   VOLTAGE     NODE   VOLTAGE


(    A)  100.0000  (    B)   42.1790  (    C)   18.3100  (N17191)   17.6560 




    VOLTAGE SOURCE CURRENTS
    NAME         CURRENT

    V_V1        -3.614E+00

    TOTAL POWER DISSIPATION   3.61E+02  WATTS



          JOB CONCLUDED

**** 09/17/24 21:28:01 **** PSpice 23.1.0 (30 January 2024) *** ID# 0 ********

 ** Profile: "SCHEMATIC1-lab1_analys"  [ E:\electric-circuit\LAB1_project\lab1_project-pspicefiles\schematic1\lab1_analys.sim ] 


 ****     JOB STATISTICS SUMMARY


******************************************************************************



  Total job time (using Solver 1)   =        3.91
