
**** 09/17/24 13:47:53 **** PSpice 23.1.0 (30 January 2024) *** ID# 0 ********

 ** Profile: "SCHEMATIC1-LAB1_project_analys"  [ E:\electric-circuit\LAB1_project\lab1_project-pspicefiles\schematic1\lab1_project_an


 ****     CIRCUIT DESCRIPTION


******************************************************************************




** Creating circuit file "LAB1_project_analys.cir" 
** WARNING: THIS AUTOMATICALLY GENERATED FILE MAY BE OVERWRITTEN BY SUBSEQUENT SIMULATIONS

*Libraries: 
* Profile Libraries :
* Local Libraries :
* From [PSPICE NETLIST] section of C:\cds_spb_home\cdssetup\OrCAD_PSpiceTIPSpice_Install\23.1.0\PSpice.ini file:
.lib "nom_pspti.lib" 
.lib "nom.lib" 

*Analysis directives: 
.OPTIONS ADVCONV
.OPTIONS FILEMODELSEARCH
.PROBE64 V(alias(*)) I(alias(*)) W(alias(*)) D(alias(*)) NOISE(alias(*)) 
.INC "..\SCHEMATIC1.net" 



**** INCLUDING SCHEMATIC1.net ****
* source LAB1_PROJECT
R_R1         N09237 N09208  12k TC=0,0 
R_R2         N09222 N09208  18k TC=0,0 
R_R3         0 N09237  4k TC=0,0 
R_R4         0 N09222  9k TC=0,0 
R_R5         N09222 N09237  6k TC=0,0 
V_V1         N09208 0 12Vdc

**** RESUMING LAB1_project_analys.cir ****
.END

**** 09/17/24 13:47:53 **** PSpice 23.1.0 (30 January 2024) *** ID# 0 ********

 ** Profile: "SCHEMATIC1-LAB1_project_analys"  [ E:\electric-circuit\LAB1_project\lab1_project-pspicefiles\schematic1\lab1_project_an


 ****     SMALL SIGNAL BIAS SOLUTION       TEMPERATURE =   27.000 DEG C


******************************************************************************



 NODE   VOLTAGE     NODE   VOLTAGE     NODE   VOLTAGE     NODE   VOLTAGE


(N09208)   12.0000 (N09222)    3.6000 (N09237)    3.2000 




    VOLTAGE SOURCE CURRENTS
    NAME         CURRENT

    V_V1        -1.200E-03

    TOTAL POWER DISSIPATION   1.44E-02  WATTS



          JOB CONCLUDED

**** 09/17/24 13:47:53 **** PSpice 23.1.0 (30 January 2024) *** ID# 0 ********

 ** Profile: "SCHEMATIC1-LAB1_project_analys"  [ E:\electric-circuit\LAB1_project\lab1_project-pspicefiles\schematic1\lab1_project_an


 ****     JOB STATISTICS SUMMARY


******************************************************************************



  License check-out time            =         .56
  Total job time (using Solver 1)   =        1.08
